
T0D64 000:044 SEGGER J-Link V4.66a Log File (0000ms, 0043ms total)
T0D64 000:044 DLL Compiled: Mar 25 2013 09:44:16 (0000ms, 0043ms total)
T0D64 000:044 Logging started @ 2013-04-12 15:08 (0000ms, 0043ms total)
T0D64 000:044 JLINK_SetWarnOutHandler(...) (0000ms, 0043ms total)
T0D64 000:044 JLINK_OpenEx(...)
Firmware: J-Link OB-SAM3U128 V1 compiled Feb  5 2013 15:27:51
Hardware: V1.00
S/N: 480201486  returns O.K. (0030ms, 0073ms total)
T0D64 000:074 JLINK_SetErrorOutHandler(...) (0000ms, 0073ms total)
T0D64 000:074 JLINK_ExecCommand("ProjectFile = "C:\Keil\ARM\Device\Nordic\nrf51822\Board\pca10001\ble\ble_app_hrs\arm\JLinkSettings.ini"", ...)  returns 0x00 (0000ms, 0073ms total)
T0D64 000:075 JLINK_ExecCommand("Device = nRF51822", ...)
                JLINK_AddMirrorAreaEx(Addr = 0x00000000, Size = 0x00000000) (0000ms, 0000ms total)
              Device "NRF51822" selected (257 KB flash, 8 KB RAM).  returns 0x00 (0005ms, 0078ms total)
T0D64 000:080 JLINK_ExecCommand("DisableConnectionTimeout", ...)  returns 0x00 (0000ms, 0078ms total)
T0D64 000:080 JLINK_TIF_Select(JLINKARM_TIF_SWD)  returns 0x00 (0006ms, 0084ms total)
T0D64 000:086 JLINK_SetSpeed(1000) (0002ms, 0086ms total)
T0D64 000:088 JLINK_GetHardwareVersion()  returns 0x2710 (0000ms, 0086ms total)
T0D64 000:088 JLINK_GetDLLVersion()  returns 46601 (0000ms, 0086ms total)
T0D64 000:088 JLINK_GetFirmwareString(...) (0000ms, 0086ms total)
T0D64 000:093 JLINK_GetDLLVersion()  returns 46601 (0000ms, 0086ms total)
T0D64 000:093 JLINK_GetCompileDateTime() (0000ms, 0086ms total)
T0D64 000:095 JLINK_GetFirmwareString(...) (0000ms, 0086ms total)
T0D64 000:097 JLINK_GetHardwareVersion()  returns 0x2710 (0000ms, 0086ms total)
T0D64 000:101 JLINK_GetId() >0x108 TIF>Found SWD-DP with ID 0x0BB11477 >0x35 TIF> >0x0D TIF> >0x28 TIF> >0x0D TIF> >0x28 TIF> >0x35 TIF> >0x35 TIF> >0x0D TIF> >0x28 TIF> >0x35 TIF> >0x35 TIF> >0x35 TIF> >0x35 TIF> >0x0D TIF> >0x28 TIF> >0x0D TIF> >0x28 TIF> >0x0D TIF> >0x28 TIF> >0x35 TIF> >0x35 TIF> >0x35 TIF> >0x0D TIF> >0x28 TIF> >0x0D TIF> >0x28 TIF> >0x35 TIF> >0x35 TIF> >0x0D TIF> >0x28 TIF> >0x35 TIF> >0x35 TIF> >0x0D TIF> >0x28 TIF> >0x0D TIF> >0x28 TIF> >0x0D TIF> >0x28 TIF> >0x35 TIF>
 >0x35 TIF> >0x0D TIF> >0x28 TIF> >0x0D TIF> >0x28 TIF> >0x0D TIF> >0x28 TIF> >0x35 TIF> >0x35 TIF> >0x35 TIF> >0x0D TIF> >0x28 TIF> >0x35 TIF> >0x35 TIF> >0x0D TIF> >0x28 TIF> >0x35 TIF> >0x35 TIF>FPUnit: 4 code (BP) slots and 0 literal slots >0x0D TIF> >0x28 TIF> >0x35 TIF> >0x35 TIF> >0x0D TIF> >0x28 TIF> >0x35 TIF> >0x35 TIF> >0x0D TIF> >0x28 TIF> >0x35 TIF> >0x35 TIF> >0x0D TIF> >0x28 TIF> >0x35 TIF> >0x35 TIF>Found Cortex-M0 r0p0, Little endian. >0x35 TIF>  returns 0x0BB11477
 (0101ms, 0187ms total)
T0D64 000:202 JLINK_GetDeviceFamily()  returns 6 (0000ms, 0187ms total)
T0D64 000:203 JLINK_ReadMem (0xE00FFFF0, 0x0010 Bytes, ...) -- CPU is running -- CPU_ReadMem(16 bytes @ 0xE00FFFF0) -- Data:  0D 00 00 00 10 00 00 00 05 00 00 00 B1 00 00 00  returns 0x00 (0004ms, 0191ms total)
T0D64 000:207 JLINK_ReadMem (0xE00FFFD0, 0x0020 Bytes, ...) -- CPU is running -- CPU_ReadMem(32 bytes @ 0xE00FFFD0) -- Data:  04 00 00 00 00 00 00 00 00 00 00 00 00 00 00 00 ...  returns 0x00 (0001ms, 0192ms total)
T0D64 000:208 JLINK_ReadMem (0xE00FF000, 0x0018 Bytes, ...) -- CPU is running -- CPU_ReadMem(24 bytes @ 0xE00FF000) -- Data:  03 F0 F0 FF 03 20 F0 FF 03 30 F0 FF 00 00 00 00 ...  returns 0x00 (0002ms, 0194ms total)
T0D64 000:210 JLINK_ReadMemU32(0xE000ED00, 0x0001 Items, ...) -- CPU is running -- CPU_ReadMem(4 bytes @ 0xE000ED00) -- Data:  00 C2 0C 41  returns 0x01 (0001ms, 0195ms total)
T0D64 000:211 JLINK_SetResetType(JLINKARM_RESET_TYPE_NORMAL)  returns JLINKARM_RESET_TYPE_NORMAL (0000ms, 0195ms total)
T0D64 000:211 JLINK_Reset() -- CPU is running -- CPU_WriteMem(4 bytes @ 0xE000EDF0) -- CPU is running -- CPU_WriteMem(4 bytes @ 0xE000EDFC) >0x35 TIF> -- CPU is running -- CPU_WriteMem(4 bytes @ 0xE000ED0C) -- CPU is running -- CPU_ReadMem(4 bytes @ 0xE000EDF0) -- CPU is running -- CPU_ReadMem(4 bytes @ 0xE000EDF0) -- CPU is running -- CPU_WriteMem(4 bytes @ 0xE000EDF0) -- CPU is running -- CPU_WriteMem(4 bytes @ 0xE000EDFC) -- CPU is running -- CPU_ReadMem(4 bytes @ 0xE000EDF0)
 -- CPU_WriteMem(4 bytes @ 0xE0002000) (0027ms, 0222ms total)
T0D64 000:238 JLINK_Halt()  returns 0x00 (0000ms, 0222ms total)
T0D64 000:238 JLINK_IsHalted() -- MA0 is in flash -- Unmirror addr 0x00010DD8  returns TRUE (0000ms, 0222ms total)
T0D64 000:238 JLINK_ReadMemU32(0xE000EDF0, 0x0001 Items, ...) -- CPU_ReadMem(4 bytes @ 0xE000EDF0) -- Data:  03 00 03 00  returns 0x01 (0001ms, 0223ms total)
T0D64 000:239 JLINK_WriteU32(0xE000EDF0, 0xA05F0003) -- CPU_WriteMem(4 bytes @ 0xE000EDF0) -- Invalidate MA0 status  returns 0x00 (0001ms, 0224ms total)
T0D64 000:240 JLINK_WriteU32(0xE000EDFC, 0x01000000) -- CPU_WriteMem(4 bytes @ 0xE000EDFC)  returns 0x00 (0001ms, 0225ms total)
T0D64 000:247 JLINK_GetHWStatus(...)  returns 0x00 (0001ms, 0226ms total)
T0D64 000:252 JLINK_GetNumBPUnits(Type = 0xFFFFFF00)  returns 0x04 (0000ms, 0226ms total)
T0D64 000:252 JLINK_GetNumBPUnits(Type = 0xF0)  returns 0x2000 (0000ms, 0226ms total)
T0D64 000:252 JLINK_GetNumWPUnits()  returns 0x02 (0000ms, 0226ms total)
T0D64 000:255 JLINK_GetSpeed()  returns 0x3E8 (0000ms, 0226ms total)
T0D64 000:259 JLINK_ReadMemU32(0xE000E004, 0x0001 Items, ...) -- CPU_ReadMem(4 bytes @ 0xE000E004) -- Data:  00 00 00 00  returns 0x01 (0002ms, 0228ms total)
T0D64 000:261 JLINK_Halt()  returns 0x00 (0000ms, 0228ms total)
T0D64 000:261 JLINK_IsHalted() -- MA0 is in flash -- Unmirror addr 0x00010DD8  returns TRUE (0000ms, 0228ms total)
T0D64 000:262 JLINK_WriteMem(0x20000000, 0x0274 Bytes, ...) -- Data:  00 BE 0A E0 0D 78 2D 06 68 40 08 24 40 00 00 D3 ... -- CPU_WriteMem(628 bytes @ 0x20000000)  returns 0x274 (0011ms, 0239ms total)
T0D64 000:273 JLINK_WriteReg(R0, 0x00000000)  returns 0x00 (0000ms, 0239ms total)
T0D64 000:273 JLINK_WriteReg(R1, 0x00F42400)  returns 0x00 (0000ms, 0239ms total)
T0D64 000:273 JLINK_WriteReg(R2, 0x00000001)  returns 0x00 (0000ms, 0239ms total)
T0D64 000:273 JLINK_WriteReg(R3, 0x00000000)  returns 0x00 (0000ms, 0239ms total)
T0D64 000:273 JLINK_WriteReg(R4, 0x00000000)  returns 0x00 (0000ms, 0239ms total)
T0D64 000:273 JLINK_WriteReg(R5, 0x00000000)  returns 0x00 (0000ms, 0239ms total)
T0D64 000:273 JLINK_WriteReg(R6, 0x00000000)  returns 0x00 (0000ms, 0239ms total)
T0D64 000:273 JLINK_WriteReg(R7, 0x00000000)  returns 0x00 (0000ms, 0239ms total)
T0D64 000:273 JLINK_WriteReg(R8, 0x00000000)  returns 0x00 (0000ms, 0239ms total)
T0D64 000:273 JLINK_WriteReg(R9, 0x20000270)  returns 0x00 (0000ms, 0239ms total)
T0D64 000:273 JLINK_WriteReg(R10, 0x00000000)  returns 0x00 (0000ms, 0239ms total)
T0D64 000:273 JLINK_WriteReg(R11, 0x00000000)  returns 0x00 (0000ms, 0239ms total)
T0D64 000:273 JLINK_WriteReg(R12, 0x00000000)  returns 0x00 (0000ms, 0239ms total)
T0D64 000:273 JLINK_WriteReg(R13, 0x20002000)  returns 0x00 (0000ms, 0239ms total)
T0D64 000:273 JLINK_WriteReg(R14, 0x20000001)  returns 0x00 (0000ms, 0239ms total)
T0D64 000:273 JLINK_WriteReg(R15, 0x20000028)  returns 0x00 (0000ms, 0239ms total)
T0D64 000:273 JLINK_WriteReg(XPSR, 0x01000000)  returns 0x00 (0000ms, 0239ms total)
T0D64 000:273 JLINK_WriteReg(MSP, 0x20002000)  returns 0x00 (0000ms, 0239ms total)
T0D64 000:273 JLINK_WriteReg(PSP, 0x20002000)  returns 0x00 (0000ms, 0239ms total)
T0D64 000:273 JLINK_WriteReg(CFBP, 0x00000000)  returns 0x00 (0000ms, 0239ms total)
T0D64 000:273 JLINK_SetBPEx(Addr = 0x20000000, Type = 0xFFFFFFF2) -- CPU_ReadMem(2 bytes @ 0x20000000)  returns 0x00000001 (0002ms, 0241ms total)
T0D64 000:275 JLINK_Go() -- CPU_WriteMem(2 bytes @ 0x20000000) -- Invalidate MA0 status -- CPU_WriteMem(4 bytes @ 0xE0002008) -- CPU_WriteMem(4 bytes @ 0xE000200C) -- CPU_WriteMem(4 bytes @ 0xE0002010) -- CPU_WriteMem(4 bytes @ 0xE0002014) (0011ms, 0252ms total)
T0D64 000:286 JLINK_IsHalted() -- CPU_ReadMem(2 bytes @ 0x20000000)  returns TRUE (0007ms, 0259ms total)
T0D64 000:293 JLINK_ReadReg(R15)  returns 0x20000000 (0000ms, 0252ms total)
T0D64 000:293 JLINK_ClrBPEx(BPHandle = 0x00000001)  returns 0x00 (0000ms, 0252ms total)
T0D64 000:293 JLINK_ReadReg(R0)  returns 0x00000000 (0000ms, 0252ms total)
T0D64 000:293 JLINK_WriteReg(R0, 0x00014000)  returns 0x00 (0000ms, 0252ms total)
T0D64 000:293 JLINK_WriteReg(R1, 0x00000400)  returns 0x00 (0000ms, 0252ms total)
T0D64 000:293 JLINK_WriteReg(R2, 0x000000FF)  returns 0x00 (0000ms, 0252ms total)
T0D64 000:293 JLINK_WriteReg(R3, 0x00000000)  returns 0x00 (0000ms, 0252ms total)
T0D64 000:293 JLINK_WriteReg(R4, 0x00000000)  returns 0x00 (0000ms, 0252ms total)
T0D64 000:293 JLINK_WriteReg(R5, 0x00000000)  returns 0x00 (0000ms, 0252ms total)
T0D64 000:293 JLINK_WriteReg(R6, 0x00000000)  returns 0x00 (0000ms, 0252ms total)
T0D64 000:293 JLINK_WriteReg(R7, 0x00000000)  returns 0x00 (0000ms, 0252ms total)
T0D64 000:293 JLINK_WriteReg(R8, 0x00000000)  returns 0x00 (0000ms, 0252ms total)
T0D64 000:293 JLINK_WriteReg(R9, 0x20000270)  returns 0x00 (0000ms, 0252ms total)
T0D64 000:293 JLINK_WriteReg(R10, 0x00000000)  returns 0x00 (0000ms, 0252ms total)
T0D64 000:293 JLINK_WriteReg(R11, 0x00000000)  returns 0x00 (0000ms, 0252ms total)
T0D64 000:293 JLINK_WriteReg(R12, 0x00000000)  returns 0x00 (0000ms, 0252ms total)
T0D64 000:293 JLINK_WriteReg(R13, 0x20002000)  returns 0x00 (0000ms, 0252ms total)
T0D64 000:293 JLINK_WriteReg(R14, 0x20000001)  returns 0x00 (0000ms, 0252ms total)
T0D64 000:293 JLINK_WriteReg(R15, 0x20000204)  returns 0x00 (0000ms, 0252ms total)
T0D64 000:293 JLINK_WriteReg(XPSR, 0x01000000)  returns 0x00 (0000ms, 0252ms total)
T0D64 000:293 JLINK_WriteReg(MSP, 0x20002000)  returns 0x00 (0000ms, 0252ms total)
T0D64 000:293 JLINK_WriteReg(PSP, 0x20002000)  returns 0x00 (0000ms, 0252ms total)
T0D64 000:293 JLINK_WriteReg(CFBP, 0x00000000)  returns 0x00 (0000ms, 0252ms total)
T0D64 000:293 JLINK_SetBPEx(Addr = 0x20000000, Type = 0xFFFFFFF2)  returns 0x00000002 (0000ms, 0252ms total)
T0D64 000:293 JLINK_Go() (0005ms, 0257ms total)
T0D64 000:298 JLINK_IsHalted() -- CPU_ReadMem(2 bytes @ 0x20000000)  returns TRUE (0007ms, 0264ms total)
T0D64 000:305 JLINK_ReadReg(R15)  returns 0x20000000 (0000ms, 0257ms total)
T0D64 000:305 JLINK_ClrBPEx(BPHandle = 0x00000002)  returns 0x00 (0000ms, 0257ms total)
T0D64 000:305 JLINK_ReadReg(R0)  returns 0x00000000 (0000ms, 0257ms total)
T0D64 000:305 JLINK_WriteReg(R0, 0x00014400)  returns 0x00 (0000ms, 0257ms total)
T0D64 000:305 JLINK_WriteReg(R1, 0x00000400)  returns 0x00 (0000ms, 0257ms total)
T0D64 000:305 JLINK_WriteReg(R2, 0x000000FF)  returns 0x00 (0000ms, 0257ms total)
T0D64 000:305 JLINK_WriteReg(R3, 0x00000000)  returns 0x00 (0000ms, 0257ms total)
T0D64 000:305 JLINK_WriteReg(R4, 0x00000000)  returns 0x00 (0000ms, 0257ms total)
T0D64 000:305 JLINK_WriteReg(R5, 0x00000000)  returns 0x00 (0000ms, 0257ms total)
T0D64 000:305 JLINK_WriteReg(R6, 0x00000000)  returns 0x00 (0000ms, 0257ms total)
T0D64 000:305 JLINK_WriteReg(R7, 0x00000000)  returns 0x00 (0000ms, 0257ms total)
T0D64 000:305 JLINK_WriteReg(R8, 0x00000000)  returns 0x00 (0000ms, 0257ms total)
T0D64 000:305 JLINK_WriteReg(R9, 0x20000270)  returns 0x00 (0000ms, 0257ms total)
T0D64 000:305 JLINK_WriteReg(R10, 0x00000000)  returns 0x00 (0000ms, 0257ms total)
T0D64 000:305 JLINK_WriteReg(R11, 0x00000000)  returns 0x00 (0000ms, 0257ms total)
T0D64 000:305 JLINK_WriteReg(R12, 0x00000000)  returns 0x00 (0000ms, 0257ms total)
T0D64 000:305 JLINK_WriteReg(R13, 0x20002000)  returns 0x00 (0000ms, 0257ms total)
T0D64 000:305 JLINK_WriteReg(R14, 0x20000001)  returns 0x00 (0000ms, 0257ms total)
T0D64 000:305 JLINK_WriteReg(R15, 0x20000204)  returns 0x00 (0000ms, 0257ms total)
T0D64 000:305 JLINK_WriteReg(XPSR, 0x01000000)  returns 0x00 (0001ms, 0258ms total)
T0D64 000:306 JLINK_WriteReg(MSP, 0x20002000)  returns 0x00 (0000ms, 0258ms total)
T0D64 000:306 JLINK_WriteReg(PSP, 0x20002000)  returns 0x00 (0000ms, 0258ms total)
T0D64 000:306 JLINK_WriteReg(CFBP, 0x00000000)  returns 0x00 (0000ms, 0258ms total)
T0D64 000:306 JLINK_SetBPEx(Addr = 0x20000000, Type = 0xFFFFFFF2)  returns 0x00000003 (0000ms, 0258ms total)
T0D64 000:306 JLINK_Go() (0004ms, 0262ms total)
T0D64 000:310 JLINK_IsHalted() -- CPU_ReadMem(2 bytes @ 0x20000000)  returns TRUE (0006ms, 0268ms total)
T0D64 000:316 JLINK_ReadReg(R15)  returns 0x20000000 (0000ms, 0262ms total)
T0D64 000:316 JLINK_ClrBPEx(BPHandle = 0x00000003)  returns 0x00 (0000ms, 0262ms total)
T0D64 000:316 JLINK_ReadReg(R0)  returns 0x00000000 (0000ms, 0262ms total)
T0D64 000:317 JLINK_WriteReg(R0, 0x00014800)  returns 0x00 (0000ms, 0262ms total)
T0D64 000:317 JLINK_WriteReg(R1, 0x00000400)  returns 0x00 (0000ms, 0262ms total)
T0D64 000:317 JLINK_WriteReg(R2, 0x000000FF)  returns 0x00 (0000ms, 0262ms total)
T0D64 000:317 JLINK_WriteReg(R3, 0x00000000)  returns 0x00 (0000ms, 0262ms total)
T0D64 000:317 JLINK_WriteReg(R4, 0x00000000)  returns 0x00 (0000ms, 0262ms total)
T0D64 000:317 JLINK_WriteReg(R5, 0x00000000)  returns 0x00 (0000ms, 0262ms total)
T0D64 000:317 JLINK_WriteReg(R6, 0x00000000)  returns 0x00 (0000ms, 0262ms total)
T0D64 000:317 JLINK_WriteReg(R7, 0x00000000)  returns 0x00 (0000ms, 0262ms total)
T0D64 000:317 JLINK_WriteReg(R8, 0x00000000)  returns 0x00 (0000ms, 0262ms total)
T0D64 000:317 JLINK_WriteReg(R9, 0x20000270)  returns 0x00 (0000ms, 0262ms total)
T0D64 000:317 JLINK_WriteReg(R10, 0x00000000)  returns 0x00 (0000ms, 0262ms total)
T0D64 000:317 JLINK_WriteReg(R11, 0x00000000)  returns 0x00 (0000ms, 0262ms total)
T0D64 000:317 JLINK_WriteReg(R12, 0x00000000)  returns 0x00 (0000ms, 0262ms total)
T0D64 000:317 JLINK_WriteReg(R13, 0x20002000)  returns 0x00 (0000ms, 0262ms total)
T0D64 000:317 JLINK_WriteReg(R14, 0x20000001)  returns 0x00 (0000ms, 0262ms total)
T0D64 000:317 JLINK_WriteReg(R15, 0x20000204)  returns 0x00 (0000ms, 0262ms total)
T0D64 000:317 JLINK_WriteReg(XPSR, 0x01000000)  returns 0x00 (0000ms, 0262ms total)
T0D64 000:317 JLINK_WriteReg(MSP, 0x20002000)  returns 0x00 (0000ms, 0262ms total)
T0D64 000:317 JLINK_WriteReg(PSP, 0x20002000)  returns 0x00 (0000ms, 0262ms total)
T0D64 000:317 JLINK_WriteReg(CFBP, 0x00000000)  returns 0x00 (0000ms, 0262ms total)
T0D64 000:317 JLINK_SetBPEx(Addr = 0x20000000, Type = 0xFFFFFFF2)  returns 0x00000004 (0000ms, 0262ms total)
T0D64 000:317 JLINK_Go() (0004ms, 0266ms total)
T0D64 000:321 JLINK_IsHalted() -- CPU_ReadMem(2 bytes @ 0x20000000)  returns TRUE (0007ms, 0273ms total)
T0D64 000:328 JLINK_ReadReg(R15)  returns 0x20000000 (0000ms, 0266ms total)
T0D64 000:328 JLINK_ClrBPEx(BPHandle = 0x00000004)  returns 0x00 (0000ms, 0266ms total)
T0D64 000:328 JLINK_ReadReg(R0)  returns 0x00000000 (0000ms, 0266ms total)
T0D64 000:329 JLINK_WriteReg(R0, 0x00014C00)  returns 0x00 (0000ms, 0266ms total)
T0D64 000:329 JLINK_WriteReg(R1, 0x00000400)  returns 0x00 (0000ms, 0266ms total)
T0D64 000:329 JLINK_WriteReg(R2, 0x000000FF)  returns 0x00 (0000ms, 0266ms total)
T0D64 000:329 JLINK_WriteReg(R3, 0x00000000)  returns 0x00 (0000ms, 0266ms total)
T0D64 000:329 JLINK_WriteReg(R4, 0x00000000)  returns 0x00 (0000ms, 0266ms total)
T0D64 000:329 JLINK_WriteReg(R5, 0x00000000)  returns 0x00 (0000ms, 0266ms total)
T0D64 000:329 JLINK_WriteReg(R6, 0x00000000)  returns 0x00 (0000ms, 0266ms total)
T0D64 000:329 JLINK_WriteReg(R7, 0x00000000)  returns 0x00 (0000ms, 0266ms total)
T0D64 000:329 JLINK_WriteReg(R8, 0x00000000)  returns 0x00 (0000ms, 0266ms total)
T0D64 000:329 JLINK_WriteReg(R9, 0x20000270)  returns 0x00 (0000ms, 0266ms total)
T0D64 000:329 JLINK_WriteReg(R10, 0x00000000)  returns 0x00 (0000ms, 0266ms total)
T0D64 000:329 JLINK_WriteReg(R11, 0x00000000)  returns 0x00 (0000ms, 0266ms total)
T0D64 000:329 JLINK_WriteReg(R12, 0x00000000)  returns 0x00 (0000ms, 0266ms total)
T0D64 000:329 JLINK_WriteReg(R13, 0x20002000)  returns 0x00 (0000ms, 0266ms total)
T0D64 000:329 JLINK_WriteReg(R14, 0x20000001)  returns 0x00 (0000ms, 0266ms total)
T0D64 000:329 JLINK_WriteReg(R15, 0x20000204)  returns 0x00 (0000ms, 0266ms total)
T0D64 000:329 JLINK_WriteReg(XPSR, 0x01000000)  returns 0x00 (0000ms, 0266ms total)
T0D64 000:329 JLINK_WriteReg(MSP, 0x20002000)  returns 0x00 (0000ms, 0266ms total)
T0D64 000:329 JLINK_WriteReg(PSP, 0x20002000)  returns 0x00 (0000ms, 0266ms total)
T0D64 000:329 JLINK_WriteReg(CFBP, 0x00000000)  returns 0x00 (0000ms, 0266ms total)
T0D64 000:329 JLINK_SetBPEx(Addr = 0x20000000, Type = 0xFFFFFFF2)  returns 0x00000005 (0000ms, 0266ms total)
T0D64 000:329 JLINK_Go() (0004ms, 0270ms total)
T0D64 000:333 JLINK_IsHalted() -- CPU_ReadMem(2 bytes @ 0x20000000)  returns TRUE (0007ms, 0277ms total)
T0D64 000:340 JLINK_ReadReg(R15)  returns 0x20000000 (0000ms, 0270ms total)
T0D64 000:340 JLINK_ClrBPEx(BPHandle = 0x00000005)  returns 0x00 (0000ms, 0270ms total)
T0D64 000:340 JLINK_ReadReg(R0)  returns 0x00000000 (0000ms, 0270ms total)
T0D64 000:341 JLINK_WriteReg(R0, 0x00015000)  returns 0x00 (0000ms, 0270ms total)
T0D64 000:341 JLINK_WriteReg(R1, 0x00000400)  returns 0x00 (0000ms, 0270ms total)
T0D64 000:341 JLINK_WriteReg(R2, 0x000000FF)  returns 0x00 (0000ms, 0270ms total)
T0D64 000:341 JLINK_WriteReg(R3, 0x00000000)  returns 0x00 (0000ms, 0270ms total)
T0D64 000:341 JLINK_WriteReg(R4, 0x00000000)  returns 0x00 (0000ms, 0270ms total)
T0D64 000:341 JLINK_WriteReg(R5, 0x00000000)  returns 0x00 (0000ms, 0270ms total)
T0D64 000:341 JLINK_WriteReg(R6, 0x00000000)  returns 0x00 (0000ms, 0270ms total)
T0D64 000:341 JLINK_WriteReg(R7, 0x00000000)  returns 0x00 (0000ms, 0270ms total)
T0D64 000:341 JLINK_WriteReg(R8, 0x00000000)  returns 0x00 (0000ms, 0270ms total)
T0D64 000:341 JLINK_WriteReg(R9, 0x20000270)  returns 0x00 (0000ms, 0270ms total)
T0D64 000:341 JLINK_WriteReg(R10, 0x00000000)  returns 0x00 (0000ms, 0270ms total)
T0D64 000:341 JLINK_WriteReg(R11, 0x00000000)  returns 0x00 (0000ms, 0270ms total)
T0D64 000:341 JLINK_WriteReg(R12, 0x00000000)  returns 0x00 (0000ms, 0270ms total)
T0D64 000:341 JLINK_WriteReg(R13, 0x20002000)  returns 0x00 (0000ms, 0270ms total)
T0D64 000:341 JLINK_WriteReg(R14, 0x20000001)  returns 0x00 (0000ms, 0270ms total)
T0D64 000:341 JLINK_WriteReg(R15, 0x20000204)  returns 0x00 (0000ms, 0270ms total)
T0D64 000:341 JLINK_WriteReg(XPSR, 0x01000000)  returns 0x00 (0000ms, 0270ms total)
T0D64 000:341 JLINK_WriteReg(MSP, 0x20002000)  returns 0x00 (0000ms, 0270ms total)
T0D64 000:341 JLINK_WriteReg(PSP, 0x20002000)  returns 0x00 (0000ms, 0270ms total)
T0D64 000:341 JLINK_WriteReg(CFBP, 0x00000000)  returns 0x00 (0000ms, 0270ms total)
T0D64 000:341 JLINK_SetBPEx(Addr = 0x20000000, Type = 0xFFFFFFF2)  returns 0x00000006 (0000ms, 0270ms total)
T0D64 000:341 JLINK_Go() (0004ms, 0274ms total)
T0D64 000:345 JLINK_IsHalted() -- CPU_ReadMem(2 bytes @ 0x20000000)  returns TRUE (0008ms, 0282ms total)
T0D64 000:353 JLINK_ReadReg(R15)  returns 0x20000000 (0000ms, 0274ms total)
T0D64 000:353 JLINK_ClrBPEx(BPHandle = 0x00000006)  returns 0x00 (0000ms, 0274ms total)
T0D64 000:353 JLINK_ReadReg(R0)  returns 0x00000000 (0000ms, 0274ms total)
T0D64 000:354 JLINK_WriteReg(R0, 0x00015400)  returns 0x00 (0000ms, 0274ms total)
T0D64 000:354 JLINK_WriteReg(R1, 0x00000400)  returns 0x00 (0000ms, 0274ms total)
T0D64 000:354 JLINK_WriteReg(R2, 0x000000FF)  returns 0x00 (0000ms, 0274ms total)
T0D64 000:354 JLINK_WriteReg(R3, 0x00000000)  returns 0x00 (0000ms, 0274ms total)
T0D64 000:354 JLINK_WriteReg(R4, 0x00000000)  returns 0x00 (0000ms, 0274ms total)
T0D64 000:354 JLINK_WriteReg(R5, 0x00000000)  returns 0x00 (0000ms, 0274ms total)
T0D64 000:354 JLINK_WriteReg(R6, 0x00000000)  returns 0x00 (0000ms, 0274ms total)
T0D64 000:354 JLINK_WriteReg(R7, 0x00000000)  returns 0x00 (0000ms, 0274ms total)
T0D64 000:354 JLINK_WriteReg(R8, 0x00000000)  returns 0x00 (0000ms, 0274ms total)
T0D64 000:354 JLINK_WriteReg(R9, 0x20000270)  returns 0x00 (0000ms, 0274ms total)
T0D64 000:354 JLINK_WriteReg(R10, 0x00000000)  returns 0x00 (0000ms, 0274ms total)
T0D64 000:354 JLINK_WriteReg(R11, 0x00000000)  returns 0x00 (0000ms, 0274ms total)
T0D64 000:354 JLINK_WriteReg(R12, 0x00000000)  returns 0x00 (0000ms, 0274ms total)
T0D64 000:354 JLINK_WriteReg(R13, 0x20002000)  returns 0x00 (0000ms, 0274ms total)
T0D64 000:354 JLINK_WriteReg(R14, 0x20000001)  returns 0x00 (0000ms, 0274ms total)
T0D64 000:354 JLINK_WriteReg(R15, 0x20000204)  returns 0x00 (0000ms, 0274ms total)
T0D64 000:354 JLINK_WriteReg(XPSR, 0x01000000)  returns 0x00 (0000ms, 0274ms total)
T0D64 000:354 JLINK_WriteReg(MSP, 0x20002000)  returns 0x00 (0000ms, 0274ms total)
T0D64 000:354 JLINK_WriteReg(PSP, 0x20002000)  returns 0x00 (0000ms, 0274ms total)
T0D64 000:354 JLINK_WriteReg(CFBP, 0x00000000)  returns 0x00 (0000ms, 0274ms total)
T0D64 000:354 JLINK_SetBPEx(Addr = 0x20000000, Type = 0xFFFFFFF2)  returns 0x00000007 (0000ms, 0274ms total)
T0D64 000:354 JLINK_Go() (0004ms, 0278ms total)
T0D64 000:358 JLINK_IsHalted() -- CPU_ReadMem(2 bytes @ 0x20000000)  returns TRUE (0007ms, 0285ms total)
T0D64 000:365 JLINK_ReadReg(R15)  returns 0x20000000 (0000ms, 0278ms total)
T0D64 000:365 JLINK_ClrBPEx(BPHandle = 0x00000007)  returns 0x00 (0000ms, 0278ms total)
T0D64 000:365 JLINK_ReadReg(R0)  returns 0x00000000 (0000ms, 0278ms total)
T0D64 000:366 JLINK_WriteReg(R0, 0x00015800)  returns 0x00 (0000ms, 0278ms total)
T0D64 000:366 JLINK_WriteReg(R1, 0x00000400)  returns 0x00 (0000ms, 0278ms total)
T0D64 000:366 JLINK_WriteReg(R2, 0x000000FF)  returns 0x00 (0000ms, 0278ms total)
T0D64 000:366 JLINK_WriteReg(R3, 0x00000000)  returns 0x00 (0000ms, 0278ms total)
T0D64 000:366 JLINK_WriteReg(R4, 0x00000000)  returns 0x00 (0000ms, 0278ms total)
T0D64 000:366 JLINK_WriteReg(R5, 0x00000000)  returns 0x00 (0000ms, 0278ms total)
T0D64 000:366 JLINK_WriteReg(R6, 0x00000000)  returns 0x00 (0000ms, 0278ms total)
T0D64 000:366 JLINK_WriteReg(R7, 0x00000000)  returns 0x00 (0000ms, 0278ms total)
T0D64 000:366 JLINK_WriteReg(R8, 0x00000000)  returns 0x00 (0000ms, 0278ms total)
T0D64 000:366 JLINK_WriteReg(R9, 0x20000270)  returns 0x00 (0000ms, 0278ms total)
T0D64 000:366 JLINK_WriteReg(R10, 0x00000000)  returns 0x00 (0000ms, 0278ms total)
T0D64 000:366 JLINK_WriteReg(R11, 0x00000000)  returns 0x00 (0000ms, 0278ms total)
T0D64 000:366 JLINK_WriteReg(R12, 0x00000000)  returns 0x00 (0000ms, 0278ms total)
T0D64 000:366 JLINK_WriteReg(R13, 0x20002000)  returns 0x00 (0000ms, 0278ms total)
T0D64 000:366 JLINK_WriteReg(R14, 0x20000001)  returns 0x00 (0000ms, 0278ms total)
T0D64 000:366 JLINK_WriteReg(R15, 0x20000204)  returns 0x00 (0000ms, 0278ms total)
T0D64 000:366 JLINK_WriteReg(XPSR, 0x01000000)  returns 0x00 (0000ms, 0278ms total)
T0D64 000:366 JLINK_WriteReg(MSP, 0x20002000)  returns 0x00 (0000ms, 0278ms total)
T0D64 000:366 JLINK_WriteReg(PSP, 0x20002000)  returns 0x00 (0000ms, 0278ms total)
T0D64 000:366 JLINK_WriteReg(CFBP, 0x00000000)  returns 0x00 (0000ms, 0278ms total)
T0D64 000:366 JLINK_SetBPEx(Addr = 0x20000000, Type = 0xFFFFFFF2)  returns 0x00000008 (0000ms, 0278ms total)
T0D64 000:366 JLINK_Go() (0004ms, 0282ms total)
T0D64 000:370 JLINK_IsHalted() -- CPU_ReadMem(2 bytes @ 0x20000000)  returns TRUE (0007ms, 0289ms total)
T0D64 000:377 JLINK_ReadReg(R15)  returns 0x20000000 (0000ms, 0282ms total)
T0D64 000:377 JLINK_ClrBPEx(BPHandle = 0x00000008)  returns 0x00 (0000ms, 0282ms total)
T0D64 000:377 JLINK_ReadReg(R0)  returns 0x00000000 (0000ms, 0282ms total)
T0D64 000:378 JLINK_WriteReg(R0, 0x00015C00)  returns 0x00 (0000ms, 0282ms total)
T0D64 000:378 JLINK_WriteReg(R1, 0x00000400)  returns 0x00 (0000ms, 0282ms total)
T0D64 000:378 JLINK_WriteReg(R2, 0x000000FF)  returns 0x00 (0000ms, 0282ms total)
T0D64 000:378 JLINK_WriteReg(R3, 0x00000000)  returns 0x00 (0000ms, 0282ms total)
T0D64 000:378 JLINK_WriteReg(R4, 0x00000000)  returns 0x00 (0000ms, 0282ms total)
T0D64 000:378 JLINK_WriteReg(R5, 0x00000000)  returns 0x00 (0000ms, 0282ms total)
T0D64 000:378 JLINK_WriteReg(R6, 0x00000000)  returns 0x00 (0000ms, 0282ms total)
T0D64 000:378 JLINK_WriteReg(R7, 0x00000000)  returns 0x00 (0000ms, 0282ms total)
T0D64 000:378 JLINK_WriteReg(R8, 0x00000000)  returns 0x00 (0000ms, 0282ms total)
T0D64 000:378 JLINK_WriteReg(R9, 0x20000270)  returns 0x00 (0000ms, 0282ms total)
T0D64 000:378 JLINK_WriteReg(R10, 0x00000000)  returns 0x00 (0000ms, 0282ms total)
T0D64 000:378 JLINK_WriteReg(R11, 0x00000000)  returns 0x00 (0000ms, 0282ms total)
T0D64 000:378 JLINK_WriteReg(R12, 0x00000000)  returns 0x00 (0000ms, 0282ms total)
T0D64 000:378 JLINK_WriteReg(R13, 0x20002000)  returns 0x00 (0000ms, 0282ms total)
T0D64 000:378 JLINK_WriteReg(R14, 0x20000001)  returns 0x00 (0000ms, 0282ms total)
T0D64 000:378 JLINK_WriteReg(R15, 0x20000204)  returns 0x00 (0000ms, 0282ms total)
T0D64 000:378 JLINK_WriteReg(XPSR, 0x01000000)  returns 0x00 (0000ms, 0282ms total)
T0D64 000:378 JLINK_WriteReg(MSP, 0x20002000)  returns 0x00 (0000ms, 0282ms total)
T0D64 000:378 JLINK_WriteReg(PSP, 0x20002000)  returns 0x00 (0000ms, 0282ms total)
T0D64 000:378 JLINK_WriteReg(CFBP, 0x00000000)  returns 0x00 (0000ms, 0282ms total)
T0D64 000:378 JLINK_SetBPEx(Addr = 0x20000000, Type = 0xFFFFFFF2)  returns 0x00000009 (0000ms, 0282ms total)
T0D64 000:378 JLINK_Go() (0004ms, 0286ms total)
T0D64 000:382 JLINK_IsHalted() -- CPU_ReadMem(2 bytes @ 0x20000000)  returns TRUE (0007ms, 0293ms total)
T0D64 000:389 JLINK_ReadReg(R15)  returns 0x20000000 (0000ms, 0286ms total)
T0D64 000:389 JLINK_ClrBPEx(BPHandle = 0x00000009)  returns 0x00 (0000ms, 0286ms total)
T0D64 000:389 JLINK_ReadReg(R0)  returns 0x00000000 (0000ms, 0286ms total)
T0D64 000:389 JLINK_WriteReg(R0, 0x00016000)  returns 0x00 (0000ms, 0286ms total)
T0D64 000:389 JLINK_WriteReg(R1, 0x00000400)  returns 0x00 (0000ms, 0286ms total)
T0D64 000:389 JLINK_WriteReg(R2, 0x000000FF)  returns 0x00 (0000ms, 0286ms total)
T0D64 000:389 JLINK_WriteReg(R3, 0x00000000)  returns 0x00 (0000ms, 0286ms total)
T0D64 000:389 JLINK_WriteReg(R4, 0x00000000)  returns 0x00 (0000ms, 0286ms total)
T0D64 000:389 JLINK_WriteReg(R5, 0x00000000)  returns 0x00 (0000ms, 0286ms total)
T0D64 000:389 JLINK_WriteReg(R6, 0x00000000)  returns 0x00 (0000ms, 0286ms total)
T0D64 000:389 JLINK_WriteReg(R7, 0x00000000)  returns 0x00 (0000ms, 0286ms total)
T0D64 000:389 JLINK_WriteReg(R8, 0x00000000)  returns 0x00 (0000ms, 0286ms total)
T0D64 000:389 JLINK_WriteReg(R9, 0x20000270)  returns 0x00 (0000ms, 0286ms total)
T0D64 000:389 JLINK_WriteReg(R10, 0x00000000)  returns 0x00 (0000ms, 0286ms total)
T0D64 000:389 JLINK_WriteReg(R11, 0x00000000)  returns 0x00 (0000ms, 0286ms total)
T0D64 000:389 JLINK_WriteReg(R12, 0x00000000)  returns 0x00 (0000ms, 0286ms total)
T0D64 000:389 JLINK_WriteReg(R13, 0x20002000)  returns 0x00 (0000ms, 0286ms total)
T0D64 000:389 JLINK_WriteReg(R14, 0x20000001)  returns 0x00 (0000ms, 0286ms total)
T0D64 000:389 JLINK_WriteReg(R15, 0x20000204)  returns 0x00 (0000ms, 0286ms total)
T0D64 000:389 JLINK_WriteReg(XPSR, 0x01000000)  returns 0x00 (0000ms, 0286ms total)
T0D64 000:389 JLINK_WriteReg(MSP, 0x20002000)  returns 0x00 (0000ms, 0286ms total)
T0D64 000:389 JLINK_WriteReg(PSP, 0x20002000)  returns 0x00 (0000ms, 0286ms total)
T0D64 000:389 JLINK_WriteReg(CFBP, 0x00000000)  returns 0x00 (0000ms, 0286ms total)
T0D64 000:389 JLINK_SetBPEx(Addr = 0x20000000, Type = 0xFFFFFFF2)  returns 0x0000000A (0000ms, 0286ms total)
T0D64 000:389 JLINK_Go() (0005ms, 0291ms total)
T0D64 000:394 JLINK_IsHalted() -- CPU_ReadMem(2 bytes @ 0x20000000)  returns TRUE (0008ms, 0299ms total)
T0D64 000:402 JLINK_ReadReg(R15)  returns 0x20000000 (0000ms, 0291ms total)
T0D64 000:402 JLINK_ClrBPEx(BPHandle = 0x0000000A)  returns 0x00 (0000ms, 0291ms total)
T0D64 000:402 JLINK_ReadReg(R0)  returns 0x00000000 (0000ms, 0291ms total)
T0D64 000:402 JLINK_WriteReg(R0, 0x00016400)  returns 0x00 (0000ms, 0291ms total)
T0D64 000:402 JLINK_WriteReg(R1, 0x00000400)  returns 0x00 (0000ms, 0291ms total)
T0D64 000:402 JLINK_WriteReg(R2, 0x000000FF)  returns 0x00 (0000ms, 0291ms total)
T0D64 000:402 JLINK_WriteReg(R3, 0x00000000)  returns 0x00 (0000ms, 0291ms total)
T0D64 000:402 JLINK_WriteReg(R4, 0x00000000)  returns 0x00 (0000ms, 0291ms total)
T0D64 000:402 JLINK_WriteReg(R5, 0x00000000)  returns 0x00 (0000ms, 0291ms total)
T0D64 000:402 JLINK_WriteReg(R6, 0x00000000)  returns 0x00 (0000ms, 0291ms total)
T0D64 000:402 JLINK_WriteReg(R7, 0x00000000)  returns 0x00 (0000ms, 0291ms total)
T0D64 000:402 JLINK_WriteReg(R8, 0x00000000)  returns 0x00 (0000ms, 0291ms total)
T0D64 000:402 JLINK_WriteReg(R9, 0x20000270)  returns 0x00 (0000ms, 0291ms total)
T0D64 000:402 JLINK_WriteReg(R10, 0x00000000)  returns 0x00 (0000ms, 0291ms total)
T0D64 000:402 JLINK_WriteReg(R11, 0x00000000)  returns 0x00 (0000ms, 0291ms total)
T0D64 000:402 JLINK_WriteReg(R12, 0x00000000)  returns 0x00 (0000ms, 0291ms total)
T0D64 000:402 JLINK_WriteReg(R13, 0x20002000)  returns 0x00 (0000ms, 0291ms total)
T0D64 000:402 JLINK_WriteReg(R14, 0x20000001)  returns 0x00 (0000ms, 0291ms total)
T0D64 000:402 JLINK_WriteReg(R15, 0x20000204)  returns 0x00 (0000ms, 0291ms total)
T0D64 000:402 JLINK_WriteReg(XPSR, 0x01000000)  returns 0x00 (0000ms, 0291ms total)
T0D64 000:402 JLINK_WriteReg(MSP, 0x20002000)  returns 0x00 (0000ms, 0291ms total)
T0D64 000:402 JLINK_WriteReg(PSP, 0x20002000)  returns 0x00 (0000ms, 0291ms total)
T0D64 000:402 JLINK_WriteReg(CFBP, 0x00000000)  returns 0x00 (0000ms, 0291ms total)
T0D64 000:402 JLINK_SetBPEx(Addr = 0x20000000, Type = 0xFFFFFFF2)  returns 0x0000000B (0000ms, 0291ms total)
T0D64 000:402 JLINK_Go() (0005ms, 0296ms total)
T0D64 000:407 JLINK_IsHalted() -- CPU_ReadMem(2 bytes @ 0x20000000)  returns TRUE (0008ms, 0304ms total)
T0D64 000:415 JLINK_ReadReg(R15)  returns 0x20000000 (0000ms, 0296ms total)
T0D64 000:415 JLINK_ClrBPEx(BPHandle = 0x0000000B)  returns 0x00 (0000ms, 0296ms total)
T0D64 000:415 JLINK_ReadReg(R0)  returns 0x00000000 (0000ms, 0296ms total)
T0D64 000:415 JLINK_WriteReg(R0, 0x00016800)  returns 0x00 (0000ms, 0296ms total)
T0D64 000:415 JLINK_WriteReg(R1, 0x00000400)  returns 0x00 (0000ms, 0296ms total)
T0D64 000:415 JLINK_WriteReg(R2, 0x000000FF)  returns 0x00 (0000ms, 0296ms total)
T0D64 000:415 JLINK_WriteReg(R3, 0x00000000)  returns 0x00 (0000ms, 0296ms total)
T0D64 000:415 JLINK_WriteReg(R4, 0x00000000)  returns 0x00 (0000ms, 0296ms total)
T0D64 000:415 JLINK_WriteReg(R5, 0x00000000)  returns 0x00 (0000ms, 0296ms total)
T0D64 000:415 JLINK_WriteReg(R6, 0x00000000)  returns 0x00 (0000ms, 0296ms total)
T0D64 000:415 JLINK_WriteReg(R7, 0x00000000)  returns 0x00 (0000ms, 0296ms total)
T0D64 000:415 JLINK_WriteReg(R8, 0x00000000)  returns 0x00 (0000ms, 0296ms total)
T0D64 000:415 JLINK_WriteReg(R9, 0x20000270)  returns 0x00 (0000ms, 0296ms total)
T0D64 000:415 JLINK_WriteReg(R10, 0x00000000)  returns 0x00 (0000ms, 0296ms total)
T0D64 000:415 JLINK_WriteReg(R11, 0x00000000)  returns 0x00 (0000ms, 0296ms total)
T0D64 000:415 JLINK_WriteReg(R12, 0x00000000)  returns 0x00 (0000ms, 0296ms total)
T0D64 000:415 JLINK_WriteReg(R13, 0x20002000)  returns 0x00 (0000ms, 0296ms total)
T0D64 000:415 JLINK_WriteReg(R14, 0x20000001)  returns 0x00 (0000ms, 0296ms total)
T0D64 000:415 JLINK_WriteReg(R15, 0x20000204)  returns 0x00 (0000ms, 0296ms total)
T0D64 000:415 JLINK_WriteReg(XPSR, 0x01000000)  returns 0x00 (0000ms, 0296ms total)
T0D64 000:415 JLINK_WriteReg(MSP, 0x20002000)  returns 0x00 (0000ms, 0296ms total)
T0D64 000:415 JLINK_WriteReg(PSP, 0x20002000)  returns 0x00 (0000ms, 0296ms total)
T0D64 000:415 JLINK_WriteReg(CFBP, 0x00000000)  returns 0x00 (0001ms, 0297ms total)
T0D64 000:416 JLINK_SetBPEx(Addr = 0x20000000, Type = 0xFFFFFFF2)  returns 0x0000000C (0000ms, 0297ms total)
T0D64 000:416 JLINK_Go() (0004ms, 0301ms total)
T0D64 000:420 JLINK_IsHalted() -- CPU_ReadMem(2 bytes @ 0x20000000)  returns TRUE (0007ms, 0308ms total)
T0D64 000:427 JLINK_ReadReg(R15)  returns 0x20000000 (0000ms, 0301ms total)
T0D64 000:427 JLINK_ClrBPEx(BPHandle = 0x0000000C)  returns 0x00 (0000ms, 0301ms total)
T0D64 000:427 JLINK_ReadReg(R0)  returns 0x00000000 (0000ms, 0301ms total)
T0D64 000:427 JLINK_WriteReg(R0, 0x00016C00)  returns 0x00 (0000ms, 0301ms total)
T0D64 000:427 JLINK_WriteReg(R1, 0x00000400)  returns 0x00 (0000ms, 0301ms total)
T0D64 000:427 JLINK_WriteReg(R2, 0x000000FF)  returns 0x00 (0000ms, 0301ms total)
T0D64 000:427 JLINK_WriteReg(R3, 0x00000000)  returns 0x00 (0000ms, 0301ms total)
T0D64 000:427 JLINK_WriteReg(R4, 0x00000000)  returns 0x00 (0000ms, 0301ms total)
T0D64 000:427 JLINK_WriteReg(R5, 0x00000000)  returns 0x00 (0000ms, 0301ms total)
T0D64 000:427 JLINK_WriteReg(R6, 0x00000000)  returns 0x00 (0000ms, 0301ms total)
T0D64 000:427 JLINK_WriteReg(R7, 0x00000000)  returns 0x00 (0000ms, 0301ms total)
T0D64 000:427 JLINK_WriteReg(R8, 0x00000000)  returns 0x00 (0000ms, 0301ms total)
T0D64 000:427 JLINK_WriteReg(R9, 0x20000270)  returns 0x00 (0000ms, 0301ms total)
T0D64 000:427 JLINK_WriteReg(R10, 0x00000000)  returns 0x00 (0001ms, 0302ms total)
T0D64 000:428 JLINK_WriteReg(R11, 0x00000000)  returns 0x00 (0000ms, 0302ms total)
T0D64 000:428 JLINK_WriteReg(R12, 0x00000000)  returns 0x00 (0000ms, 0302ms total)
T0D64 000:428 JLINK_WriteReg(R13, 0x20002000)  returns 0x00 (0000ms, 0302ms total)
T0D64 000:428 JLINK_WriteReg(R14, 0x20000001)  returns 0x00 (0000ms, 0302ms total)
T0D64 000:428 JLINK_WriteReg(R15, 0x20000204)  returns 0x00 (0000ms, 0302ms total)
T0D64 000:428 JLINK_WriteReg(XPSR, 0x01000000)  returns 0x00 (0000ms, 0302ms total)
T0D64 000:428 JLINK_WriteReg(MSP, 0x20002000)  returns 0x00 (0000ms, 0302ms total)
T0D64 000:428 JLINK_WriteReg(PSP, 0x20002000)  returns 0x00 (0000ms, 0302ms total)
T0D64 000:428 JLINK_WriteReg(CFBP, 0x00000000)  returns 0x00 (0000ms, 0302ms total)
T0D64 000:428 JLINK_SetBPEx(Addr = 0x20000000, Type = 0xFFFFFFF2)  returns 0x0000000D (0000ms, 0302ms total)
T0D64 000:428 JLINK_Go() (0003ms, 0305ms total)
T0D64 000:431 JLINK_IsHalted() -- CPU_ReadMem(2 bytes @ 0x20000000)  returns TRUE (0007ms, 0312ms total)
T0D64 000:438 JLINK_ReadReg(R15)  returns 0x20000000 (0000ms, 0305ms total)
T0D64 000:438 JLINK_ClrBPEx(BPHandle = 0x0000000D)  returns 0x00 (0000ms, 0305ms total)
T0D64 000:438 JLINK_ReadReg(R0)  returns 0x00000000 (0000ms, 0305ms total)
T0D64 000:439 JLINK_WriteReg(R0, 0x00017000)  returns 0x00 (0000ms, 0305ms total)
T0D64 000:439 JLINK_WriteReg(R1, 0x00000400)  returns 0x00 (0000ms, 0305ms total)
T0D64 000:439 JLINK_WriteReg(R2, 0x000000FF)  returns 0x00 (0000ms, 0305ms total)
T0D64 000:439 JLINK_WriteReg(R3, 0x00000000)  returns 0x00 (0000ms, 0305ms total)
T0D64 000:439 JLINK_WriteReg(R4, 0x00000000)  returns 0x00 (0000ms, 0305ms total)
T0D64 000:439 JLINK_WriteReg(R5, 0x00000000)  returns 0x00 (0000ms, 0305ms total)
T0D64 000:439 JLINK_WriteReg(R6, 0x00000000)  returns 0x00 (0000ms, 0305ms total)
T0D64 000:439 JLINK_WriteReg(R7, 0x00000000)  returns 0x00 (0000ms, 0305ms total)
T0D64 000:439 JLINK_WriteReg(R8, 0x00000000)  returns 0x00 (0000ms, 0305ms total)
T0D64 000:439 JLINK_WriteReg(R9, 0x20000270)  returns 0x00 (0000ms, 0305ms total)
T0D64 000:439 JLINK_WriteReg(R10, 0x00000000)  returns 0x00 (0000ms, 0305ms total)
T0D64 000:439 JLINK_WriteReg(R11, 0x00000000)  returns 0x00 (0000ms, 0305ms total)
T0D64 000:439 JLINK_WriteReg(R12, 0x00000000)  returns 0x00 (0000ms, 0305ms total)
T0D64 000:439 JLINK_WriteReg(R13, 0x20002000)  returns 0x00 (0000ms, 0305ms total)
T0D64 000:439 JLINK_WriteReg(R14, 0x20000001)  returns 0x00 (0000ms, 0305ms total)
T0D64 000:439 JLINK_WriteReg(R15, 0x20000204)  returns 0x00 (0000ms, 0305ms total)
T0D64 000:439 JLINK_WriteReg(XPSR, 0x01000000)  returns 0x00 (0000ms, 0305ms total)
T0D64 000:439 JLINK_WriteReg(MSP, 0x20002000)  returns 0x00 (0000ms, 0305ms total)
T0D64 000:439 JLINK_WriteReg(PSP, 0x20002000)  returns 0x00 (0000ms, 0305ms total)
T0D64 000:439 JLINK_WriteReg(CFBP, 0x00000000)  returns 0x00 (0000ms, 0305ms total)
T0D64 000:439 JLINK_SetBPEx(Addr = 0x20000000, Type = 0xFFFFFFF2)  returns 0x0000000E (0000ms, 0305ms total)
T0D64 000:439 JLINK_Go() (0004ms, 0309ms total)
T0D64 000:443 JLINK_IsHalted() -- CPU_ReadMem(2 bytes @ 0x20000000)  returns TRUE (0007ms, 0316ms total)
T0D64 000:450 JLINK_ReadReg(R15)  returns 0x20000000 (0000ms, 0309ms total)
T0D64 000:450 JLINK_ClrBPEx(BPHandle = 0x0000000E)  returns 0x00 (0000ms, 0309ms total)
T0D64 000:450 JLINK_ReadReg(R0)  returns 0x00000000 (0000ms, 0309ms total)
T0D64 000:451 JLINK_WriteReg(R0, 0x00017400)  returns 0x00 (0000ms, 0309ms total)
T0D64 000:451 JLINK_WriteReg(R1, 0x00000400)  returns 0x00 (0000ms, 0309ms total)
T0D64 000:451 JLINK_WriteReg(R2, 0x000000FF)  returns 0x00 (0000ms, 0309ms total)
T0D64 000:451 JLINK_WriteReg(R3, 0x00000000)  returns 0x00 (0000ms, 0309ms total)
T0D64 000:451 JLINK_WriteReg(R4, 0x00000000)  returns 0x00 (0000ms, 0309ms total)
T0D64 000:451 JLINK_WriteReg(R5, 0x00000000)  returns 0x00 (0000ms, 0309ms total)
T0D64 000:451 JLINK_WriteReg(R6, 0x00000000)  returns 0x00 (0000ms, 0309ms total)
T0D64 000:451 JLINK_WriteReg(R7, 0x00000000)  returns 0x00 (0000ms, 0309ms total)
T0D64 000:451 JLINK_WriteReg(R8, 0x00000000)  returns 0x00 (0000ms, 0309ms total)
T0D64 000:451 JLINK_WriteReg(R9, 0x20000270)  returns 0x00 (0000ms, 0309ms total)
T0D64 000:451 JLINK_WriteReg(R10, 0x00000000)  returns 0x00 (0000ms, 0309ms total)
T0D64 000:451 JLINK_WriteReg(R11, 0x00000000)  returns 0x00 (0000ms, 0309ms total)
T0D64 000:451 JLINK_WriteReg(R12, 0x00000000)  returns 0x00 (0000ms, 0309ms total)
T0D64 000:451 JLINK_WriteReg(R13, 0x20002000)  returns 0x00 (0000ms, 0309ms total)
T0D64 000:451 JLINK_WriteReg(R14, 0x20000001)  returns 0x00 (0000ms, 0309ms total)
T0D64 000:451 JLINK_WriteReg(R15, 0x20000204)  returns 0x00 (0000ms, 0309ms total)
T0D64 000:451 JLINK_WriteReg(XPSR, 0x01000000)  returns 0x00 (0000ms, 0309ms total)
T0D64 000:451 JLINK_WriteReg(MSP, 0x20002000)  returns 0x00 (0000ms, 0309ms total)
T0D64 000:451 JLINK_WriteReg(PSP, 0x20002000)  returns 0x00 (0000ms, 0309ms total)
T0D64 000:451 JLINK_WriteReg(CFBP, 0x00000000)  returns 0x00 (0000ms, 0309ms total)
T0D64 000:451 JLINK_SetBPEx(Addr = 0x20000000, Type = 0xFFFFFFF2)  returns 0x0000000F (0000ms, 0309ms total)
T0D64 000:451 JLINK_Go() (0004ms, 0313ms total)
T0D64 000:455 JLINK_IsHalted() -- CPU_ReadMem(2 bytes @ 0x20000000)  returns TRUE (0007ms, 0320ms total)
T0D64 000:462 JLINK_ReadReg(R15)  returns 0x20000000 (0000ms, 0313ms total)
T0D64 000:462 JLINK_ClrBPEx(BPHandle = 0x0000000F)  returns 0x00 (0000ms, 0313ms total)
T0D64 000:462 JLINK_ReadReg(R0)  returns 0x00000000 (0000ms, 0313ms total)
T0D64 000:462 JLINK_WriteReg(R0, 0x00017800)  returns 0x00 (0000ms, 0313ms total)
T0D64 000:462 JLINK_WriteReg(R1, 0x00000400)  returns 0x00 (0000ms, 0313ms total)
T0D64 000:462 JLINK_WriteReg(R2, 0x000000FF)  returns 0x00 (0000ms, 0313ms total)
T0D64 000:462 JLINK_WriteReg(R3, 0x00000000)  returns 0x00 (0000ms, 0313ms total)
T0D64 000:462 JLINK_WriteReg(R4, 0x00000000)  returns 0x00 (0000ms, 0313ms total)
T0D64 000:462 JLINK_WriteReg(R5, 0x00000000)  returns 0x00 (0000ms, 0313ms total)
T0D64 000:462 JLINK_WriteReg(R6, 0x00000000)  returns 0x00 (0000ms, 0313ms total)
T0D64 000:462 JLINK_WriteReg(R7, 0x00000000)  returns 0x00 (0000ms, 0313ms total)
T0D64 000:462 JLINK_WriteReg(R8, 0x00000000)  returns 0x00 (0000ms, 0313ms total)
T0D64 000:462 JLINK_WriteReg(R9, 0x20000270)  returns 0x00 (0000ms, 0313ms total)
T0D64 000:462 JLINK_WriteReg(R10, 0x00000000)  returns 0x00 (0000ms, 0313ms total)
T0D64 000:462 JLINK_WriteReg(R11, 0x00000000)  returns 0x00 (0001ms, 0314ms total)
T0D64 000:463 JLINK_WriteReg(R12, 0x00000000)  returns 0x00 (0000ms, 0314ms total)
T0D64 000:463 JLINK_WriteReg(R13, 0x20002000)  returns 0x00 (0000ms, 0314ms total)
T0D64 000:463 JLINK_WriteReg(R14, 0x20000001)  returns 0x00 (0000ms, 0314ms total)
T0D64 000:463 JLINK_WriteReg(R15, 0x20000204)  returns 0x00 (0000ms, 0314ms total)
T0D64 000:463 JLINK_WriteReg(XPSR, 0x01000000)  returns 0x00 (0000ms, 0314ms total)
T0D64 000:463 JLINK_WriteReg(MSP, 0x20002000)  returns 0x00 (0000ms, 0314ms total)
T0D64 000:463 JLINK_WriteReg(PSP, 0x20002000)  returns 0x00 (0000ms, 0314ms total)
T0D64 000:463 JLINK_WriteReg(CFBP, 0x00000000)  returns 0x00 (0000ms, 0314ms total)
T0D64 000:463 JLINK_SetBPEx(Addr = 0x20000000, Type = 0xFFFFFFF2)  returns 0x00000010 (0000ms, 0314ms total)
T0D64 000:463 JLINK_Go() (0004ms, 0318ms total)
T0D64 000:467 JLINK_IsHalted() -- CPU_ReadMem(2 bytes @ 0x20000000)  returns TRUE (0007ms, 0325ms total)
T0D64 000:474 JLINK_ReadReg(R15)  returns 0x20000000 (0000ms, 0318ms total)
T0D64 000:474 JLINK_ClrBPEx(BPHandle = 0x00000010)  returns 0x00 (0000ms, 0318ms total)
T0D64 000:474 JLINK_ReadReg(R0)  returns 0x00000000 (0000ms, 0318ms total)
T0D64 000:474 JLINK_WriteReg(R0, 0x00000001)  returns 0x00 (0000ms, 0318ms total)
T0D64 000:474 JLINK_WriteReg(R1, 0x00000400)  returns 0x00 (0000ms, 0318ms total)
T0D64 000:474 JLINK_WriteReg(R2, 0x000000FF)  returns 0x00 (0000ms, 0318ms total)
T0D64 000:474 JLINK_WriteReg(R3, 0x00000000)  returns 0x00 (0000ms, 0318ms total)
T0D64 000:474 JLINK_WriteReg(R4, 0x00000000)  returns 0x00 (0000ms, 0318ms total)
T0D64 000:474 JLINK_WriteReg(R5, 0x00000000)  returns 0x00 (0000ms, 0318ms total)
T0D64 000:474 JLINK_WriteReg(R6, 0x00000000)  returns 0x00 (0000ms, 0318ms total)
T0D64 000:474 JLINK_WriteReg(R7, 0x00000000)  returns 0x00 (0000ms, 0318ms total)
T0D64 000:474 JLINK_WriteReg(R8, 0x00000000)  returns 0x00 (0000ms, 0318ms total)
T0D64 000:474 JLINK_WriteReg(R9, 0x20000270)  returns 0x00 (0000ms, 0318ms total)
T0D64 000:474 JLINK_WriteReg(R10, 0x00000000)  returns 0x00 (0000ms, 0318ms total)
T0D64 000:474 JLINK_WriteReg(R11, 0x00000000)  returns 0x00 (0000ms, 0318ms total)
T0D64 000:474 JLINK_WriteReg(R12, 0x00000000)  returns 0x00 (0000ms, 0318ms total)
T0D64 000:474 JLINK_WriteReg(R13, 0x20002000)  returns 0x00 (0000ms, 0318ms total)
T0D64 000:474 JLINK_WriteReg(R14, 0x20000001)  returns 0x00 (0000ms, 0318ms total)
T0D64 000:474 JLINK_WriteReg(R15, 0x20000074)  returns 0x00 (0000ms, 0318ms total)
T0D64 000:474 JLINK_WriteReg(XPSR, 0x01000000)  returns 0x00 (0000ms, 0318ms total)
T0D64 000:474 JLINK_WriteReg(MSP, 0x20002000)  returns 0x00 (0000ms, 0318ms total)
T0D64 000:474 JLINK_WriteReg(PSP, 0x20002000)  returns 0x00 (0000ms, 0318ms total)
T0D64 000:474 JLINK_WriteReg(CFBP, 0x00000000)  returns 0x00 (0000ms, 0318ms total)
T0D64 000:474 JLINK_SetBPEx(Addr = 0x20000000, Type = 0xFFFFFFF2)  returns 0x00000011 (0000ms, 0318ms total)
T0D64 000:474 JLINK_Go() (0005ms, 0323ms total)
T0D64 000:479 JLINK_IsHalted() -- CPU_ReadMem(2 bytes @ 0x20000000)  returns TRUE (0006ms, 0329ms total)
T0D64 000:485 JLINK_ReadReg(R15)  returns 0x20000000 (0000ms, 0323ms total)
T0D64 000:485 JLINK_ClrBPEx(BPHandle = 0x00000011)  returns 0x00 (0000ms, 0323ms total)
T0D64 000:485 JLINK_ReadReg(R0)  returns 0x00000000 (0000ms, 0323ms total)
T0D64 000:539 JLINK_WriteMem(0x20000000, 0x0274 Bytes, ...) -- Data:  00 BE 0A E0 0D 78 2D 06 68 40 08 24 40 00 00 D3 ... -- CPU_WriteMem(628 bytes @ 0x20000000)  returns 0x274 (0011ms, 0334ms total)
T0D64 000:550 JLINK_WriteReg(R0, 0x00000000)  returns 0x00 (0000ms, 0334ms total)
T0D64 000:550 JLINK_WriteReg(R1, 0x00F42400)  returns 0x00 (0000ms, 0334ms total)
T0D64 000:550 JLINK_WriteReg(R2, 0x00000002)  returns 0x00 (0000ms, 0334ms total)
T0D64 000:550 JLINK_WriteReg(R3, 0x00000000)  returns 0x00 (0000ms, 0334ms total)
T0D64 000:550 JLINK_WriteReg(R4, 0x00000000)  returns 0x00 (0000ms, 0334ms total)
T0D64 000:550 JLINK_WriteReg(R5, 0x00000000)  returns 0x00 (0000ms, 0334ms total)
T0D64 000:550 JLINK_WriteReg(R6, 0x00000000)  returns 0x00 (0000ms, 0334ms total)
T0D64 000:550 JLINK_WriteReg(R7, 0x00000000)  returns 0x00 (0000ms, 0334ms total)
T0D64 000:550 JLINK_WriteReg(R8, 0x00000000)  returns 0x00 (0000ms, 0334ms total)
T0D64 000:550 JLINK_WriteReg(R9, 0x20000270)  returns 0x00 (0000ms, 0334ms total)
T0D64 000:550 JLINK_WriteReg(R10, 0x00000000)  returns 0x00 (0000ms, 0334ms total)
T0D64 000:550 JLINK_WriteReg(R11, 0x00000000)  returns 0x00 (0000ms, 0334ms total)
T0D64 000:550 JLINK_WriteReg(R12, 0x00000000)  returns 0x00 (0000ms, 0334ms total)
T0D64 000:550 JLINK_WriteReg(R13, 0x20002000)  returns 0x00 (0000ms, 0334ms total)
T0D64 000:550 JLINK_WriteReg(R14, 0x20000001)  returns 0x00 (0000ms, 0334ms total)
T0D64 000:550 JLINK_WriteReg(R15, 0x20000028)  returns 0x00 (0000ms, 0334ms total)
T0D64 000:550 JLINK_WriteReg(XPSR, 0x01000000)  returns 0x00 (0000ms, 0334ms total)
T0D64 000:550 JLINK_WriteReg(MSP, 0x20002000)  returns 0x00 (0000ms, 0334ms total)
T0D64 000:550 JLINK_WriteReg(PSP, 0x20002000)  returns 0x00 (0000ms, 0334ms total)
T0D64 000:550 JLINK_WriteReg(CFBP, 0x00000000)  returns 0x00 (0000ms, 0334ms total)
T0D64 000:550 JLINK_SetBPEx(Addr = 0x20000000, Type = 0xFFFFFFF2) -- CPU_ReadMem(2 bytes @ 0x20000000)  returns 0x00000012 (0002ms, 0336ms total)
T0D64 000:552 JLINK_Go() -- CPU_WriteMem(2 bytes @ 0x20000000) (0005ms, 0341ms total)
T0D64 000:557 JLINK_IsHalted() -- CPU_ReadMem(2 bytes @ 0x20000000)  returns TRUE (0007ms, 0348ms total)
T0D64 000:564 JLINK_ReadReg(R15)  returns 0x20000000 (0000ms, 0341ms total)
T0D64 000:564 JLINK_ClrBPEx(BPHandle = 0x00000012)  returns 0x00 (0000ms, 0341ms total)
T0D64 000:564 JLINK_ReadReg(R0)  returns 0x00000000 (0000ms, 0341ms total)
T0D64 000:564 JLINK_WriteMem(0x20000274, 0x018C Bytes, ...) -- Data:  18 39 00 20 C1 41 01 00 D3 41 01 00 D5 41 01 00 ... -- CPU_WriteMem(396 bytes @ 0x20000274)  returns 0x18C (0008ms, 0349ms total)
T0D64 000:572 JLINK_WriteMem(0x20000400, 0x0274 Bytes, ...) -- Data:  0C 46 16 46 02 E0 0F CC 0F C5 10 3E 10 2E FA D2 ... -- CPU_WriteMem(628 bytes @ 0x20000400)  returns 0x274 (0010ms, 0359ms total)
T0D64 000:582 JLINK_WriteReg(R0, 0x00014000)  returns 0x00 (0000ms, 0359ms total)
T0D64 000:582 JLINK_WriteReg(R1, 0x00000400)  returns 0x00 (0000ms, 0359ms total)
T0D64 000:582 JLINK_WriteReg(R2, 0x20000274)  returns 0x00 (0000ms, 0359ms total)
T0D64 000:582 JLINK_WriteReg(R3, 0x00000000)  returns 0x00 (0000ms, 0359ms total)
T0D64 000:582 JLINK_WriteReg(R4, 0x00000000)  returns 0x00 (0000ms, 0359ms total)
T0D64 000:582 JLINK_WriteReg(R5, 0x00000000)  returns 0x00 (0000ms, 0359ms total)
T0D64 000:582 JLINK_WriteReg(R6, 0x00000000)  returns 0x00 (0000ms, 0359ms total)
T0D64 000:582 JLINK_WriteReg(R7, 0x00000000)  returns 0x00 (0000ms, 0359ms total)
T0D64 000:582 JLINK_WriteReg(R8, 0x00000000)  returns 0x00 (0000ms, 0359ms total)
T0D64 000:582 JLINK_WriteReg(R9, 0x20000270)  returns 0x00 (0000ms, 0359ms total)
T0D64 000:582 JLINK_WriteReg(R10, 0x00000000)  returns 0x00 (0000ms, 0359ms total)
T0D64 000:582 JLINK_WriteReg(R11, 0x00000000)  returns 0x00 (0000ms, 0359ms total)
T0D64 000:582 JLINK_WriteReg(R12, 0x00000000)  returns 0x00 (0000ms, 0359ms total)
T0D64 000:582 JLINK_WriteReg(R13, 0x20002000)  returns 0x00 (0000ms, 0359ms total)
T0D64 000:582 JLINK_WriteReg(R14, 0x20000001)  returns 0x00 (0000ms, 0359ms total)
T0D64 000:582 JLINK_WriteReg(R15, 0x20000142)  returns 0x00 (0000ms, 0359ms total)
T0D64 000:582 JLINK_WriteReg(XPSR, 0x01000000)  returns 0x00 (0000ms, 0359ms total)
T0D64 000:582 JLINK_WriteReg(MSP, 0x20002000)  returns 0x00 (0000ms, 0359ms total)
T0D64 000:582 JLINK_WriteReg(PSP, 0x20002000)  returns 0x00 (0000ms, 0359ms total)
T0D64 000:582 JLINK_WriteReg(CFBP, 0x00000000)  returns 0x00 (0000ms, 0359ms total)
T0D64 000:582 JLINK_SetBPEx(Addr = 0x20000000, Type = 0xFFFFFFF2)  returns 0x00000013 (0000ms, 0359ms total)
T0D64 000:582 JLINK_Go() (0005ms, 0364ms total)
T0D64 000:587 JLINK_IsHalted()  returns FALSE (0002ms, 0366ms total)
T0D64 000:639 JLINK_IsHalted() -- CPU_ReadMem(2 bytes @ 0x20000000)  returns TRUE (0008ms, 0372ms total)
T0D64 000:647 JLINK_ReadReg(R15)  returns 0x20000000 (0000ms, 0364ms total)
T0D64 000:647 JLINK_ClrBPEx(BPHandle = 0x00000013)  returns 0x00 (0000ms, 0364ms total)
T0D64 000:647 JLINK_ReadReg(R0)  returns 0x00000000 (0000ms, 0364ms total)
T0D64 000:647 JLINK_WriteMem(0x20000274, 0x018C Bytes, ...) -- Data:  98 4A 01 21 98 48 01 F0 F1 FA 00 28 05 D0 BF F3 ... -- CPU_WriteMem(396 bytes @ 0x20000274)  returns 0x18C (0008ms, 0372ms total)
T0D64 000:655 JLINK_WriteMem(0x20000400, 0x0274 Bytes, ...) -- Data:  46 4A 01 70 51 68 10 68 92 68 11 91 10 90 12 92 ... -- CPU_WriteMem(628 bytes @ 0x20000400)  returns 0x274 (0010ms, 0382ms total)
T0D64 000:665 JLINK_WriteReg(R0, 0x00014400)  returns 0x00 (0000ms, 0382ms total)
T0D64 000:665 JLINK_WriteReg(R1, 0x00000400)  returns 0x00 (0000ms, 0382ms total)
T0D64 000:665 JLINK_WriteReg(R2, 0x20000274)  returns 0x00 (0000ms, 0382ms total)
T0D64 000:665 JLINK_WriteReg(R3, 0x00000000)  returns 0x00 (0000ms, 0382ms total)
T0D64 000:665 JLINK_WriteReg(R4, 0x00000000)  returns 0x00 (0000ms, 0382ms total)
T0D64 000:665 JLINK_WriteReg(R5, 0x00000000)  returns 0x00 (0000ms, 0382ms total)
T0D64 000:665 JLINK_WriteReg(R6, 0x00000000)  returns 0x00 (0000ms, 0382ms total)
T0D64 000:665 JLINK_WriteReg(R7, 0x00000000)  returns 0x00 (0000ms, 0382ms total)
T0D64 000:665 JLINK_WriteReg(R8, 0x00000000)  returns 0x00 (0000ms, 0382ms total)
T0D64 000:665 JLINK_WriteReg(R9, 0x20000270)  returns 0x00 (0000ms, 0382ms total)
T0D64 000:665 JLINK_WriteReg(R10, 0x00000000)  returns 0x00 (0000ms, 0382ms total)
T0D64 000:665 JLINK_WriteReg(R11, 0x00000000)  returns 0x00 (0000ms, 0382ms total)
T0D64 000:665 JLINK_WriteReg(R12, 0x00000000)  returns 0x00 (0000ms, 0382ms total)
T0D64 000:665 JLINK_WriteReg(R13, 0x20002000)  returns 0x00 (0000ms, 0382ms total)
T0D64 000:665 JLINK_WriteReg(R14, 0x20000001)  returns 0x00 (0000ms, 0382ms total)
T0D64 000:665 JLINK_WriteReg(R15, 0x20000142)  returns 0x00 (0000ms, 0382ms total)
